
T8120 000:509 SEGGER J-Link V4.96d Log File (0001ms, 0308ms total)
T8120 000:509 DLL Compiled: Jan 29 2015 11:45:37 (0002ms, 0309ms total)
T8120 000:509 Logging started @ 2017-07-21 01:56 (0002ms, 0309ms total)
T8120 000:511 JLINK_SetWarnOutHandler(...) (0000ms, 0309ms total)
T8120 000:511 JLINK_OpenEx(...)
Firmware: J-Link V9 compiled Jun 16 2017 16:15:10
Hardware: V9.40
S/N: 59407033
Feature(s): RDI, GDB, FlashDL, FlashBP, JFlash  returns O.K. (0299ms, 0608ms total)
T8120 000:810 JLINK_SetErrorOutHandler(...) (0000ms, 0608ms total)
T8120 000:810 JLINK_ExecCommand("ProjectFile = "C:\Users\OYM666\Desktop\夏令营学习资料\junior1.3\junior1.1\MDK-ARM\JLinkSettings.ini"", ...)Device "STM32F427II" selected.  returns 0x00 (0045ms, 0653ms total)
T8120 000:901 JLINK_ExecCommand("Device = STM32F427II", ...)Device "STM32F427II" selected.  returns 0x00 (0039ms, 0693ms total)
T8120 000:940 JLINK_ExecCommand("DisableConnectionTimeout", ...)  returns 0x01 (0000ms, 0693ms total)
T8120 000:941 JLINK_GetHardwareVersion()  returns 0x16F30 (0000ms, 0694ms total)
T8120 000:941 JLINK_GetDLLVersion()  returns 49604 (0000ms, 0694ms total)
T8120 000:941 JLINK_GetFirmwareString(...) (0000ms, 0694ms total)
T8120 001:034 JLINK_GetDLLVersion()  returns 49604 (0000ms, 0694ms total)
T8120 001:034 JLINK_GetCompileDateTime() (0000ms, 0694ms total)
T8120 001:059 JLINK_GetFirmwareString(...) (0000ms, 0694ms total)
T8120 001:093 JLINK_GetHardwareVersion()  returns 0x16F30 (0000ms, 0694ms total)
T8120 001:225 JLINK_TIF_Select(JLINKARM_TIF_SWD)  returns 0x00 (0004ms, 0698ms total)
T8120 001:229 JLINK_SetSpeed(5000) (0001ms, 0699ms total)
T8120 001:230 JLINK_GetId() >0x108 TIF>Found SWD-DP with ID 0x2BA01477 >0x0D TIF> >0x28 TIF> >0x0D TIF> >0x28 TIF> >0x0D TIF> >0x21 TIF> >0x0D TIF> >0x28 TIF> >0x0D TIF> >0x28 TIF> >0x0D TIF> >0x28 TIF> >0x0D TIF> >0x21 TIF> >0x0D TIF> >0x21 TIF> >0x0D TIF> >0x28 TIF> >0x0D TIF> >0x21 TIF> >0x0D TIF> >0x21 TIF> >0x0D TIF> >0x28 TIF> >0x0D TIF> >0x21 TIF> >0x0D TIF> >0x21 TIF> >0x108 TIF>Found SWD-DP with ID 0x2BA01477 >0x0D TIF> >0x21 TIF> >0x0D TIF> >0x28 TIF> >0x0D TIF> >0x28 TIF> >0x0D TIF> >0x21 TIF>
 >0x0D TIF> >0x28 TIF> >0x0D TIF> >0x21 TIF> >0x0D TIF> >0x21 TIF> >0x0D TIF> >0x21 TIF> >0x0D TIF> >0x21 TIF> >0x0D TIF> >0x28 TIF> >0x0D TIF> >0x28 TIF> >0x0D TIF> >0x21 TIF> >0x0D TIF> >0x28 TIF> >0x0D TIF> >0x28 TIF> >0x0D TIF> >0x28 TIF> >0x0D TIF> >0x21 TIF> >0x0D TIF> >0x21 TIF> >0x0D TIF> >0x28 TIF> >0x0D TIF> >0x21 TIF> >0x0D TIF> >0x21 TIF>Found Cortex-M4 r0p1, Little endian. -- CPU_WriteMem(4 bytes @ 0xE0002000) -- CPU_ReadMem(4 bytes @ 0xE000EDF0) -- CPU_ReadMem(4 bytes @ 0xE0002000)
FPUnit: 6 code (BP) slots and 2 literal slots -- CPU_ReadMem(4 bytes @ 0xE000EDFC) -- CPU_ReadMem(4 bytes @ 0xE0001000) -- CPU_WriteMem(4 bytes @ 0xE0001000) -- CPU_ReadMem(4 bytes @ 0xE000ED88) -- CPU_WriteMem(4 bytes @ 0xE000ED88) -- CPU_ReadMem(4 bytes @ 0xE000ED88) -- CPU_WriteMem(4 bytes @ 0xE000ED88) -- CPU_ReadMem(4 bytes @ 0xE00FF010)TPIU fitted. -- CPU_ReadMem(4 bytes @ 0xE00FF014)ETM fitted. -- CPU_ReadMem(4 bytes @ 0xE00FF018) >0x0D TIF> >0x21 TIF>  returns 0x2BA01477 (0270ms, 0969ms total)
T8120 001:500 JLINK_GetDLLVersion()  returns 49604 (0000ms, 0969ms total)
T8120 001:500 JLINK_CORE_GetFound()  returns 0xE0000FF (0001ms, 0970ms total)
T8120 001:501 JLINK_GetDebugInfo(0x100) -- Value=0xE00FF003  returns 0x00 (0000ms, 0970ms total)
T8120 001:536 JLINK_ReadMem (0xE00FF000, 0x0020 Bytes, ...) -- CPU is running -- CPU_ReadMem(32 bytes @ 0xE00FF000) - Data: 03 F0 F0 FF 03 20 F0 FF 03 30 F0 FF 03 10 F0 FF ...  returns 0x00 (0002ms, 0973ms total)
T8120 001:538 JLINK_ReadMem (0xE000EFF0, 0x0010 Bytes, ...) -- CPU is running -- CPU_ReadMem(16 bytes @ 0xE000EFF0) - Data: 0D 00 00 00 E0 00 00 00 05 00 00 00 B1 00 00 00  returns 0x00 (0001ms, 0974ms total)
T8120 001:539 JLINK_ReadMem (0xE000EFD0, 0x0020 Bytes, ...) -- CPU is running -- CPU_ReadMem(32 bytes @ 0xE000EFD0) - Data: 04 00 00 00 00 00 00 00 00 00 00 00 00 00 00 00 ...  returns 0x00 (0002ms, 0976ms total)
T8120 001:541 JLINK_ReadMem (0xE0001FF0, 0x0010 Bytes, ...) -- CPU is running -- CPU_ReadMem(16 bytes @ 0xE0001FF0) - Data: 0D 00 00 00 E0 00 00 00 05 00 00 00 B1 00 00 00  returns 0x00 (0001ms, 0977ms total)
T8120 001:543 JLINK_ReadMem (0xE0001FD0, 0x0020 Bytes, ...) -- CPU is running -- CPU_ReadMem(32 bytes @ 0xE0001FD0) - Data: 04 00 00 00 00 00 00 00 00 00 00 00 00 00 00 00 ...  returns 0x00 (0001ms, 0978ms total)
T8120 001:544 JLINK_ReadMem (0xE0002FF0, 0x0010 Bytes, ...) -- CPU is running -- CPU_ReadMem(16 bytes @ 0xE0002FF0) - Data: 0D 00 00 00 E0 00 00 00 05 00 00 00 B1 00 00 00  returns 0x00 (0002ms, 0980ms total)
T8120 001:546 JLINK_ReadMem (0xE0002FD0, 0x0020 Bytes, ...) -- CPU is running -- CPU_ReadMem(32 bytes @ 0xE0002FD0) - Data: 04 00 00 00 00 00 00 00 00 00 00 00 00 00 00 00 ...  returns 0x00 (0001ms, 0981ms total)
T8120 001:547 JLINK_ReadMem (0xE0000FF0, 0x0010 Bytes, ...) -- CPU is running -- CPU_ReadMem(16 bytes @ 0xE0000FF0) - Data: 0D 00 00 00 E0 00 00 00 05 00 00 00 B1 00 00 00  returns 0x00 (0002ms, 0983ms total)
T8120 001:550 JLINK_ReadMem (0xE0000FD0, 0x0020 Bytes, ...) -- CPU is running -- CPU_ReadMem(32 bytes @ 0xE0000FD0) - Data: 04 00 00 00 00 00 00 00 00 00 00 00 00 00 00 00 ...  returns 0x00 (0003ms, 0987ms total)
T8120 001:554 JLINK_ReadMem (0xE0040FF0, 0x0010 Bytes, ...) -- CPU is running -- CPU_ReadMem(16 bytes @ 0xE0040FF0) - Data: 0D 00 00 00 90 00 00 00 05 00 00 00 B1 00 00 00  returns 0x00 (0001ms, 0988ms total)
T8120 001:555 JLINK_ReadMem (0xE0040FD0, 0x0020 Bytes, ...) -- CPU is running -- CPU_ReadMem(32 bytes @ 0xE0040FD0) - Data: 04 00 00 00 00 00 00 00 00 00 00 00 00 00 00 00 ...  returns 0x00 (0002ms, 0990ms total)
T8120 001:557 JLINK_ReadMem (0xE0041FF0, 0x0010 Bytes, ...) -- CPU is running -- CPU_ReadMem(16 bytes @ 0xE0041FF0) - Data: 0D 00 00 00 90 00 00 00 05 00 00 00 B1 00 00 00  returns 0x00 (0001ms, 0991ms total)
T8120 001:558 JLINK_ReadMem (0xE0041FD0, 0x0020 Bytes, ...) -- CPU is running -- CPU_ReadMem(32 bytes @ 0xE0041FD0) - Data: 04 00 00 00 00 00 00 00 00 00 00 00 00 00 00 00 ...  returns 0x00 (0002ms, 0993ms total)
T8120 001:560 JLINK_ReadMemU32(0xE000EF40, 0x0001 Items, ...) -- CPU is running -- CPU_ReadMem(4 bytes @ 0xE000EF40) - Data: 21 00 11 10  returns 0x01 (0001ms, 0994ms total)
T8120 001:561 JLINK_ReadMemU32(0xE000EF44, 0x0001 Items, ...) -- CPU is running -- CPU_ReadMem(4 bytes @ 0xE000EF44) - Data: 11 00 00 11  returns 0x01 (0001ms, 0995ms total)
T8120 001:562 JLINK_ReadMemU32(0xE000ED00, 0x0001 Items, ...) -- CPU is running -- CPU_ReadMem(4 bytes @ 0xE000ED00) - Data: 41 C2 0F 41  returns 0x01 (0002ms, 0997ms total)
T8120 001:564 JLINK_SetResetType(JLINKARM_RESET_TYPE_NORMAL)  returns JLINKARM_RESET_TYPE_NORMAL (0000ms, 0997ms total)
T8120 001:564 JLINK_Reset() -- CPU is running -- CPU_WriteMem(4 bytes @ 0xE000EDF0) -- CPU is running -- CPU_WriteMem(4 bytes @ 0xE000EDFC) >0x35 TIF> -- CPU is running -- CPU_WriteMem(4 bytes @ 0xE000ED0C) -- CPU is running -- CPU_ReadMem(4 bytes @ 0xE000EDF0) -- CPU is running -- CPU_ReadMem(4 bytes @ 0xE000EDF0) -- CPU is running -- CPU_WriteMem(4 bytes @ 0xE000EDF0) -- CPU is running -- CPU_WriteMem(4 bytes @ 0xE000EDFC) -- CPU is running -- CPU_ReadMem(4 bytes @ 0xE000EDF0)
 -- CPU_WriteMem(4 bytes @ 0xE0002000) -- CPU_ReadMem(4 bytes @ 0xE000EDFC) -- CPU_ReadMem(4 bytes @ 0xE0001000) (0033ms, 1030ms total)
T8120 001:598 JLINK_Halt()  returns 0x00 (0001ms, 1032ms total)
T8120 001:599 JLINK_IsHalted()  returns TRUE (0000ms, 1032ms total)
T8120 001:599 JLINK_ReadMemU32(0xE000EDF0, 0x0001 Items, ...) -- CPU_ReadMem(4 bytes @ 0xE000EDF0) - Data: 03 00 03 00  returns 0x01 (0001ms, 1033ms total)
T8120 001:601 JLINK_WriteU32(0xE000EDF0, 0xA05F0003) -- CPU_WriteMem(4 bytes @ 0xE000EDF0)  returns 0x00 (0001ms, 1035ms total)
T8120 001:602 JLINK_WriteU32(0xE000EDFC, 0x01000000) -- CPU_WriteMem(4 bytes @ 0xE000EDFC)  returns 0x00 (0001ms, 1036ms total)
T8120 001:772 JLINK_GetHWStatus(...)  returns 0x00 (0001ms, 1037ms total)
T8120 001:865 JLINK_GetNumBPUnits(Type = 0xFFFFFF00)  returns 0x06 (0000ms, 1037ms total)
T8120 001:865 JLINK_GetNumBPUnits(Type = 0xF0)  returns 0x2000 (0000ms, 1037ms total)
T8120 001:865 JLINK_GetNumWPUnits()  returns 0x04 (0000ms, 1037ms total)
T8120 001:956 JLINK_GetSpeed()  returns 0xFA0 (0000ms, 1037ms total)
T8120 002:023 JLINK_ReadMemU32(0xE000E004, 0x0001 Items, ...) -- CPU_ReadMem(4 bytes @ 0xE000E004) - Data: 02 00 00 00  returns 0x01 (0001ms, 1038ms total)
T8120 002:024 JLINK_ReadMemU32(0xE000E004, 0x0001 Items, ...) -- CPU_ReadMem(4 bytes @ 0xE000E004) - Data: 02 00 00 00  returns 0x01 (0002ms, 1040ms total)
T8120 002:026 JLINK_WriteMem(0xE0001000, 0x001C Bytes, ...) - Data: 01 00 00 00 00 00 00 00 00 00 00 00 00 00 00 00 ... -- CPU_WriteMem(28 bytes @ 0xE0001000)  returns 0x1C (0002ms, 1042ms total)
T8120 002:028 JLINK_ReadMem (0xE0001000, 0x001C Bytes, ...) -- CPU_ReadMem(28 bytes @ 0xE0001000) - Data: 01 00 00 40 00 00 00 00 00 00 00 00 00 00 00 00 ...  returns 0x00 (0001ms, 1043ms total)
T8120 002:030 JLINK_Halt()  returns 0x00 (0000ms, 1044ms total)
T8120 002:030 JLINK_IsHalted()  returns TRUE (0000ms, 1044ms total)
T8120 002:042 JLINK_WriteMem(0x20000000, 0x0198 Bytes, ...) - Data: 00 BE 0A E0 0D 78 2D 06 68 40 08 24 40 00 00 D3 ... -- CPU_WriteMem(408 bytes @ 0x20000000)  returns 0x198 (0005ms, 1049ms total)
T8120 002:047 JLINK_WriteReg(R0, 0x08000000)  returns 0x00 (0000ms, 1049ms total)
T8120 002:047 JLINK_WriteReg(R1, 0x00B71B00)  returns 0x00 (0000ms, 1049ms total)
T8120 002:047 JLINK_WriteReg(R2, 0x00000001)  returns 0x00 (0000ms, 1049ms total)
T8120 002:047 JLINK_WriteReg(R3, 0x00000000)  returns 0x00 (0001ms, 1050ms total)
T8120 002:048 JLINK_WriteReg(R4, 0x00000000)  returns 0x00 (0000ms, 1050ms total)
T8120 002:048 JLINK_WriteReg(R5, 0x00000000)  returns 0x00 (0000ms, 1050ms total)
T8120 002:048 JLINK_WriteReg(R6, 0x00000000)  returns 0x00 (0000ms, 1050ms total)
T8120 002:048 JLINK_WriteReg(R7, 0x00000000)  returns 0x00 (0000ms, 1050ms total)
T8120 002:048 JLINK_WriteReg(R8, 0x00000000)  returns 0x00 (0001ms, 1051ms total)
T8120 002:049 JLINK_WriteReg(R9, 0x20000194)  returns 0x00 (0000ms, 1051ms total)
T8120 002:049 JLINK_WriteReg(R10, 0x00000000)  returns 0x00 (0000ms, 1051ms total)
T8120 002:049 JLINK_WriteReg(R11, 0x00000000)  returns 0x00 (0000ms, 1051ms total)
T8120 002:049 JLINK_WriteReg(R12, 0x00000000)  returns 0x00 (0000ms, 1051ms total)
T8120 002:049 JLINK_WriteReg(R13 (SP), 0x20001000)  returns 0x00 (0000ms, 1051ms total)
T8120 002:049 JLINK_WriteReg(R14, 0x20000001)  returns 0x00 (0001ms, 1052ms total)
T8120 002:050 JLINK_WriteReg(R15 (PC), 0x2000005E)  returns 0x00 (0000ms, 1052ms total)
T8120 002:050 JLINK_WriteReg(XPSR, 0x01000000)  returns 0x00 (0000ms, 1052ms total)
T8120 002:050 JLINK_WriteReg(MSP, 0x20001000)  returns 0x00 (0000ms, 1052ms total)
T8120 002:050 JLINK_WriteReg(PSP, 0x20001000)  returns 0x00 (0000ms, 1052ms total)
T8120 002:050 JLINK_WriteReg(CFBP, 0x00000000)  returns 0x00 (0001ms, 1053ms total)
T8120 002:051 JLINK_SetBPEx(Addr = 0x20000000, Type = 0xFFFFFFF2) -- CPU_ReadMem(2 bytes @ 0x20000000)  returns 0x00000001 (0001ms, 1054ms total)
T8120 002:052 JLINK_Go() -- CPU_WriteMem(2 bytes @ 0x20000000) -- CPU_WriteMem(4 bytes @ 0xE0002008) -- CPU_WriteMem(4 bytes @ 0xE000200C) -- CPU_WriteMem(4 bytes @ 0xE0002010) -- CPU_WriteMem(4 bytes @ 0xE0002014) -- CPU_WriteMem(4 bytes @ 0xE0002018) -- CPU_WriteMem(4 bytes @ 0xE000201C) -- CPU_WriteMem(4 bytes @ 0xE0001004) (0008ms, 1062ms total)
T8120 002:060 JLINK_IsHalted() -- CPU_ReadMem(2 bytes @ 0x20000000)  returns TRUE (0005ms, 1067ms total)
T8120 002:065 JLINK_ReadReg(R15 (PC))  returns 0x20000000 (0001ms, 1063ms total)
T8120 002:066 JLINK_ClrBPEx(BPHandle = 0x00000001)  returns 0x00 (0000ms, 1063ms total)
T8120 002:066 JLINK_ReadReg(R0)  returns 0x00000000 (0000ms, 1063ms total)
T8120 002:067 JLINK_WriteReg(R0, 0x08000000)  returns 0x00 (0000ms, 1063ms total)
T8120 002:067 JLINK_WriteReg(R1, 0x00004000)  returns 0x00 (0000ms, 1063ms total)
T8120 002:067 JLINK_WriteReg(R2, 0x000000FF)  returns 0x00 (0001ms, 1064ms total)
T8120 002:068 JLINK_WriteReg(R3, 0x00000000)  returns 0x00 (0000ms, 1064ms total)
T8120 002:068 JLINK_WriteReg(R4, 0x00000000)  returns 0x00 (0000ms, 1064ms total)
T8120 002:068 JLINK_WriteReg(R5, 0x00000000)  returns 0x00 (0000ms, 1064ms total)
T8120 002:068 JLINK_WriteReg(R6, 0x00000000)  returns 0x00 (0000ms, 1064ms total)
T8120 002:068 JLINK_WriteReg(R7, 0x00000000)  returns 0x00 (0000ms, 1064ms total)
T8120 002:068 JLINK_WriteReg(R8, 0x00000000)  returns 0x00 (0001ms, 1065ms total)
T8120 002:069 JLINK_WriteReg(R9, 0x20000194)  returns 0x00 (0000ms, 1065ms total)
T8120 002:069 JLINK_WriteReg(R10, 0x00000000)  returns 0x00 (0000ms, 1065ms total)
T8120 002:069 JLINK_WriteReg(R11, 0x00000000)  returns 0x00 (0000ms, 1065ms total)
T8120 002:069 JLINK_WriteReg(R12, 0x00000000)  returns 0x00 (0000ms, 1065ms total)
T8120 002:069 JLINK_WriteReg(R13 (SP), 0x20001000)  returns 0x00 (0000ms, 1065ms total)
T8120 002:070 JLINK_WriteReg(R14, 0x20000001)  returns 0x00 (0000ms, 1066ms total)
T8120 002:070 JLINK_WriteReg(R15 (PC), 0x20000020)  returns 0x00 (0000ms, 1066ms total)
T8120 002:070 JLINK_WriteReg(XPSR, 0x01000000)  returns 0x00 (0000ms, 1066ms total)
T8120 002:070 JLINK_WriteReg(MSP, 0x20001000)  returns 0x00 (0000ms, 1066ms total)
T8120 002:070 JLINK_WriteReg(PSP, 0x20001000)  returns 0x00 (0000ms, 1066ms total)
T8120 002:070 JLINK_WriteReg(CFBP, 0x00000000)  returns 0x00 (0000ms, 1066ms total)
T8120 002:070 JLINK_SetBPEx(Addr = 0x20000000, Type = 0xFFFFFFF2)  returns 0x00000002 (0001ms, 1067ms total)
T8120 002:071 JLINK_Go() (0002ms, 1069ms total)
T8120 002:073 JLINK_IsHalted() -- CPU_ReadMem(2 bytes @ 0x20000000)  returns TRUE (0009ms, 1078ms total)
T8120 002:082 JLINK_ReadReg(R15 (PC))  returns 0x20000000 (0001ms, 1070ms total)
T8120 002:083 JLINK_ClrBPEx(BPHandle = 0x00000002)  returns 0x00 (0000ms, 1070ms total)
T8120 002:083 JLINK_ReadReg(R0)  returns 0x00000001 (0000ms, 1070ms total)
T8120 002:083 JLINK_WriteReg(R0, 0x08000000)  returns 0x00 (0000ms, 1070ms total)
T8120 002:083 JLINK_WriteReg(R1, 0x00004000)  returns 0x00 (0000ms, 1070ms total)
T8120 002:083 JLINK_WriteReg(R2, 0x000000FF)  returns 0x00 (0000ms, 1070ms total)
T8120 002:083 JLINK_WriteReg(R3, 0x00000000)  returns 0x00 (0001ms, 1071ms total)
T8120 002:084 JLINK_WriteReg(R4, 0x00000000)  returns 0x00 (0000ms, 1071ms total)
T8120 002:084 JLINK_WriteReg(R5, 0x00000000)  returns 0x00 (0000ms, 1071ms total)
T8120 002:084 JLINK_WriteReg(R6, 0x00000000)  returns 0x00 (0000ms, 1071ms total)
T8120 002:084 JLINK_WriteReg(R7, 0x00000000)  returns 0x00 (0000ms, 1071ms total)
T8120 002:084 JLINK_WriteReg(R8, 0x00000000)  returns 0x00 (0000ms, 1071ms total)
T8120 002:084 JLINK_WriteReg(R9, 0x20000194)  returns 0x00 (0000ms, 1071ms total)
T8120 002:085 JLINK_WriteReg(R10, 0x00000000)  returns 0x00 (0000ms, 1072ms total)
T8120 002:085 JLINK_WriteReg(R11, 0x00000000)  returns 0x00 (0000ms, 1072ms total)
T8120 002:085 JLINK_WriteReg(R12, 0x00000000)  returns 0x00 (0000ms, 1072ms total)
T8120 002:085 JLINK_WriteReg(R13 (SP), 0x20001000)  returns 0x00 (0000ms, 1072ms total)
T8120 002:085 JLINK_WriteReg(R14, 0x20000001)  returns 0x00 (0000ms, 1072ms total)
T8120 002:085 JLINK_WriteReg(R15 (PC), 0x200000D4)  returns 0x00 (0000ms, 1072ms total)
T8120 002:086 JLINK_WriteReg(XPSR, 0x01000000)  returns 0x00 (0000ms, 1073ms total)
T8120 002:086 JLINK_WriteReg(MSP, 0x20001000)  returns 0x00 (0000ms, 1073ms total)
T8120 002:086 JLINK_WriteReg(PSP, 0x20001000)  returns 0x00 (0000ms, 1073ms total)
T8120 002:086 JLINK_WriteReg(CFBP, 0x00000000)  returns 0x00 (0000ms, 1073ms total)
T8120 002:086 JLINK_SetBPEx(Addr = 0x20000000, Type = 0xFFFFFFF2)  returns 0x00000003 (0000ms, 1073ms total)
T8120 002:086 JLINK_Go() (0004ms, 1077ms total)
T8120 002:091 JLINK_IsHalted()  returns FALSE (0002ms, 1080ms total)
T8120 002:448 JLINK_IsHalted()  returns FALSE (0001ms, 1079ms total)
T8120 002:677 JLINK_IsHalted() -- CPU_ReadMem(2 bytes @ 0x20000000)  returns TRUE (0007ms, 1085ms total)
T8120 002:684 JLINK_ReadReg(R15 (PC))  returns 0x20000000 (0000ms, 1078ms total)
T8120 002:684 JLINK_ClrBPEx(BPHandle = 0x00000003)  returns 0x00 (0000ms, 1078ms total)
T8120 002:684 JLINK_ReadReg(R0)  returns 0x00000000 (0000ms, 1078ms total)
T8120 002:687 JLINK_WriteReg(R0, 0x08004000)  returns 0x00 (0000ms, 1078ms total)
T8120 002:687 JLINK_WriteReg(R1, 0x00004000)  returns 0x00 (0000ms, 1078ms total)
T8120 002:687 JLINK_WriteReg(R2, 0x000000FF)  returns 0x00 (0000ms, 1078ms total)
T8120 002:687 JLINK_WriteReg(R3, 0x00000000)  returns 0x00 (0000ms, 1078ms total)
T8120 002:687 JLINK_WriteReg(R4, 0x00000000)  returns 0x00 (0001ms, 1079ms total)
T8120 002:688 JLINK_WriteReg(R5, 0x00000000)  returns 0x00 (0000ms, 1079ms total)
T8120 002:688 JLINK_WriteReg(R6, 0x00000000)  returns 0x00 (0000ms, 1079ms total)
T8120 002:688 JLINK_WriteReg(R7, 0x00000000)  returns 0x00 (0000ms, 1079ms total)
T8120 002:688 JLINK_WriteReg(R8, 0x00000000)  returns 0x00 (0000ms, 1079ms total)
T8120 002:688 JLINK_WriteReg(R9, 0x20000194)  returns 0x00 (0000ms, 1079ms total)
T8120 002:688 JLINK_WriteReg(R10, 0x00000000)  returns 0x00 (0000ms, 1079ms total)
T8120 002:689 JLINK_WriteReg(R11, 0x00000000)  returns 0x00 (0000ms, 1080ms total)
T8120 002:689 JLINK_WriteReg(R12, 0x00000000)  returns 0x00 (0000ms, 1080ms total)
T8120 002:689 JLINK_WriteReg(R13 (SP), 0x20001000)  returns 0x00 (0000ms, 1080ms total)
T8120 002:689 JLINK_WriteReg(R14, 0x20000001)  returns 0x00 (0000ms, 1080ms total)
T8120 002:689 JLINK_WriteReg(R15 (PC), 0x20000020)  returns 0x00 (0000ms, 1080ms total)
T8120 002:689 JLINK_WriteReg(XPSR, 0x01000000)  returns 0x00 (0000ms, 1080ms total)
T8120 002:689 JLINK_WriteReg(MSP, 0x20001000)  returns 0x00 (0000ms, 1080ms total)
T8120 002:690 JLINK_WriteReg(PSP, 0x20001000)  returns 0x00 (0000ms, 1081ms total)
T8120 002:690 JLINK_WriteReg(CFBP, 0x00000000)  returns 0x00 (0000ms, 1081ms total)
T8120 002:690 JLINK_SetBPEx(Addr = 0x20000000, Type = 0xFFFFFFF2)  returns 0x00000004 (0000ms, 1081ms total)
T8120 002:690 JLINK_Go() (0003ms, 1084ms total)
T8120 002:693 JLINK_IsHalted() -- CPU_ReadMem(2 bytes @ 0x20000000)  returns TRUE (0007ms, 1091ms total)
T8120 002:700 JLINK_ReadReg(R15 (PC))  returns 0x20000000 (0000ms, 1084ms total)
T8120 002:700 JLINK_ClrBPEx(BPHandle = 0x00000004)  returns 0x00 (0000ms, 1084ms total)
T8120 002:700 JLINK_ReadReg(R0)  returns 0x00000001 (0000ms, 1084ms total)
T8120 002:700 JLINK_WriteReg(R0, 0x08004000)  returns 0x00 (0000ms, 1084ms total)
T8120 002:700 JLINK_WriteReg(R1, 0x00004000)  returns 0x00 (0000ms, 1084ms total)
T8120 002:700 JLINK_WriteReg(R2, 0x000000FF)  returns 0x00 (0000ms, 1084ms total)
T8120 002:700 JLINK_WriteReg(R3, 0x00000000)  returns 0x00 (0000ms, 1084ms total)
T8120 002:700 JLINK_WriteReg(R4, 0x00000000)  returns 0x00 (0000ms, 1084ms total)
T8120 002:700 JLINK_WriteReg(R5, 0x00000000)  returns 0x00 (0001ms, 1085ms total)
T8120 002:701 JLINK_WriteReg(R6, 0x00000000)  returns 0x00 (0000ms, 1085ms total)
T8120 002:701 JLINK_WriteReg(R7, 0x00000000)  returns 0x00 (0000ms, 1085ms total)
T8120 002:701 JLINK_WriteReg(R8, 0x00000000)  returns 0x00 (0000ms, 1085ms total)
T8120 002:701 JLINK_WriteReg(R9, 0x20000194)  returns 0x00 (0000ms, 1085ms total)
T8120 002:701 JLINK_WriteReg(R10, 0x00000000)  returns 0x00 (0000ms, 1085ms total)
T8120 002:701 JLINK_WriteReg(R11, 0x00000000)  returns 0x00 (0000ms, 1085ms total)
T8120 002:701 JLINK_WriteReg(R12, 0x00000000)  returns 0x00 (0000ms, 1085ms total)
T8120 002:701 JLINK_WriteReg(R13 (SP), 0x20001000)  returns 0x00 (0000ms, 1085ms total)
T8120 002:701 JLINK_WriteReg(R14, 0x20000001)  returns 0x00 (0001ms, 1086ms total)
T8120 002:702 JLINK_WriteReg(R15 (PC), 0x200000D4)  returns 0x00 (0000ms, 1086ms total)
T8120 002:702 JLINK_WriteReg(XPSR, 0x01000000)  returns 0x00 (0000ms, 1086ms total)
T8120 002:702 JLINK_WriteReg(MSP, 0x20001000)  returns 0x00 (0000ms, 1086ms total)
T8120 002:702 JLINK_WriteReg(PSP, 0x20001000)  returns 0x00 (0000ms, 1086ms total)
T8120 002:702 JLINK_WriteReg(CFBP, 0x00000000)  returns 0x00 (0001ms, 1087ms total)
T8120 002:703 JLINK_SetBPEx(Addr = 0x20000000, Type = 0xFFFFFFF2)  returns 0x00000005 (0000ms, 1087ms total)
T8120 002:703 JLINK_Go() (0003ms, 1090ms total)
T8120 002:706 JLINK_IsHalted()  returns FALSE (0001ms, 1091ms total)
T8120 002:921 JLINK_IsHalted()  returns FALSE (0001ms, 1091ms total)
T8120 003:553 JLINK_IsHalted() -- CPU_ReadMem(2 bytes @ 0x20000000)  returns TRUE (0006ms, 1096ms total)
T8120 003:559 JLINK_ReadReg(R15 (PC))  returns 0x20000000 (0000ms, 1090ms total)
T8120 003:559 JLINK_ClrBPEx(BPHandle = 0x00000005)  returns 0x00 (0000ms, 1090ms total)
T8120 003:559 JLINK_ReadReg(R0)  returns 0x00000000 (0000ms, 1090ms total)
T8120 003:561 JLINK_WriteReg(R0, 0x00000001)  returns 0x00 (0000ms, 1090ms total)
T8120 003:561 JLINK_WriteReg(R1, 0x00004000)  returns 0x00 (0000ms, 1090ms total)
T8120 003:561 JLINK_WriteReg(R2, 0x000000FF)  returns 0x00 (0000ms, 1090ms total)
T8120 003:561 JLINK_WriteReg(R3, 0x00000000)  returns 0x00 (0000ms, 1090ms total)
T8120 003:561 JLINK_WriteReg(R4, 0x00000000)  returns 0x00 (0001ms, 1091ms total)
T8120 003:562 JLINK_WriteReg(R5, 0x00000000)  returns 0x00 (0000ms, 1091ms total)
T8120 003:562 JLINK_WriteReg(R6, 0x00000000)  returns 0x00 (0000ms, 1091ms total)
T8120 003:562 JLINK_WriteReg(R7, 0x00000000)  returns 0x00 (0000ms, 1091ms total)
T8120 003:562 JLINK_WriteReg(R8, 0x00000000)  returns 0x00 (0000ms, 1091ms total)
T8120 003:562 JLINK_WriteReg(R9, 0x20000194)  returns 0x00 (0000ms, 1091ms total)
T8120 003:562 JLINK_WriteReg(R10, 0x00000000)  returns 0x00 (0000ms, 1091ms total)
T8120 003:562 JLINK_WriteReg(R11, 0x00000000)  returns 0x00 (0000ms, 1091ms total)
T8120 003:563 JLINK_WriteReg(R12, 0x00000000)  returns 0x00 (0000ms, 1091ms total)
T8120 003:563 JLINK_WriteReg(R13 (SP), 0x20001000)  returns 0x00 (0000ms, 1091ms total)
T8120 003:563 JLINK_WriteReg(R14, 0x20000001)  returns 0x00 (0000ms, 1091ms total)
T8120 003:563 JLINK_WriteReg(R15 (PC), 0x2000008C)  returns 0x00 (0000ms, 1091ms total)
T8120 003:563 JLINK_WriteReg(XPSR, 0x01000000)  returns 0x00 (0000ms, 1091ms total)
T8120 003:563 JLINK_WriteReg(MSP, 0x20001000)  returns 0x00 (0000ms, 1091ms total)
T8120 003:563 JLINK_WriteReg(PSP, 0x20001000)  returns 0x00 (0000ms, 1091ms total)
T8120 003:563 JLINK_WriteReg(CFBP, 0x00000000)  returns 0x00 (0000ms, 1091ms total)
T8120 003:564 JLINK_SetBPEx(Addr = 0x20000000, Type = 0xFFFFFFF2)  returns 0x00000006 (0000ms, 1092ms total)
T8120 003:564 JLINK_Go() (0003ms, 1095ms total)
T8120 003:567 JLINK_IsHalted() -- CPU_ReadMem(2 bytes @ 0x20000000)  returns TRUE (0006ms, 1101ms total)
T8120 003:573 JLINK_ReadReg(R15 (PC))  returns 0x20000000 (0000ms, 1095ms total)
T8120 003:573 JLINK_ClrBPEx(BPHandle = 0x00000006)  returns 0x00 (0000ms, 1095ms total)
T8120 003:573 JLINK_ReadReg(R0)  returns 0x00000000 (0000ms, 1095ms total)
T8120 003:670 JLINK_WriteMem(0x20000000, 0x0198 Bytes, ...) - Data: 00 BE 0A E0 0D 78 2D 06 68 40 08 24 40 00 00 D3 ... -- CPU_WriteMem(408 bytes @ 0x20000000)  returns 0x198 (0004ms, 1099ms total)
T8120 003:674 JLINK_WriteReg(R0, 0x08000000)  returns 0x00 (0000ms, 1099ms total)
T8120 003:674 JLINK_WriteReg(R1, 0x00B71B00)  returns 0x00 (0000ms, 1099ms total)
T8120 003:674 JLINK_WriteReg(R2, 0x00000002)  returns 0x00 (0000ms, 1099ms total)
T8120 003:674 JLINK_WriteReg(R3, 0x00000000)  returns 0x00 (0001ms, 1100ms total)
T8120 003:675 JLINK_WriteReg(R4, 0x00000000)  returns 0x00 (0000ms, 1100ms total)
T8120 003:675 JLINK_WriteReg(R5, 0x00000000)  returns 0x00 (0000ms, 1100ms total)
T8120 003:675 JLINK_WriteReg(R6, 0x00000000)  returns 0x00 (0000ms, 1100ms total)
T8120 003:675 JLINK_WriteReg(R7, 0x00000000)  returns 0x00 (0000ms, 1100ms total)
T8120 003:675 JLINK_WriteReg(R8, 0x00000000)  returns 0x00 (0000ms, 1100ms total)
T8120 003:675 JLINK_WriteReg(R9, 0x20000194)  returns 0x00 (0000ms, 1100ms total)
T8120 003:675 JLINK_WriteReg(R10, 0x00000000)  returns 0x00 (0000ms, 1100ms total)
T8120 003:675 JLINK_WriteReg(R11, 0x00000000)  returns 0x00 (0001ms, 1101ms total)
T8120 003:676 JLINK_WriteReg(R12, 0x00000000)  returns 0x00 (0000ms, 1101ms total)
T8120 003:676 JLINK_WriteReg(R13 (SP), 0x20001000)  returns 0x00 (0000ms, 1101ms total)
T8120 003:676 JLINK_WriteReg(R14, 0x20000001)  returns 0x00 (0000ms, 1101ms total)
T8120 003:676 JLINK_WriteReg(R15 (PC), 0x2000005E)  returns 0x00 (0000ms, 1101ms total)
T8120 003:676 JLINK_WriteReg(XPSR, 0x01000000)  returns 0x00 (0000ms, 1101ms total)
T8120 003:676 JLINK_WriteReg(MSP, 0x20001000)  returns 0x00 (0000ms, 1101ms total)
T8120 003:676 JLINK_WriteReg(PSP, 0x20001000)  returns 0x00 (0001ms, 1102ms total)
T8120 003:677 JLINK_WriteReg(CFBP, 0x00000000)  returns 0x00 (0000ms, 1102ms total)
T8120 003:677 JLINK_SetBPEx(Addr = 0x20000000, Type = 0xFFFFFFF2) -- CPU_ReadMem(2 bytes @ 0x20000000)  returns 0x00000007 (0001ms, 1103ms total)
T8120 003:678 JLINK_Go() -- CPU_WriteMem(2 bytes @ 0x20000000) (0006ms, 1109ms total)
T8120 003:684 JLINK_IsHalted() -- CPU_ReadMem(2 bytes @ 0x20000000)  returns TRUE (0005ms, 1114ms total)
T8120 003:689 JLINK_ReadReg(R15 (PC))  returns 0x20000000 (0000ms, 1109ms total)
T8120 003:689 JLINK_ClrBPEx(BPHandle = 0x00000007)  returns 0x00 (0000ms, 1109ms total)
T8120 003:690 JLINK_ReadReg(R0)  returns 0x00000000 (0000ms, 1109ms total)
T8120 003:691 JLINK_WriteMem(0x20000198, 0x0400 Bytes, ...) - Data: 38 51 00 20 69 03 00 08 CD 40 00 08 C7 38 00 08 ... -- CPU_WriteMem(1024 bytes @ 0x20000198)  returns 0x400 (0007ms, 1116ms total)
T8120 003:698 JLINK_WriteReg(R0, 0x08000000)  returns 0x00 (0000ms, 1116ms total)
T8120 003:698 JLINK_WriteReg(R1, 0x00000400)  returns 0x00 (0001ms, 1117ms total)
T8120 003:699 JLINK_WriteReg(R2, 0x20000198)  returns 0x00 (0000ms, 1117ms total)
T8120 003:699 JLINK_WriteReg(R3, 0x00000000)  returns 0x00 (0000ms, 1117ms total)
T8120 003:699 JLINK_WriteReg(R4, 0x00000000)  returns 0x00 (0000ms, 1117ms total)
T8120 003:699 JLINK_WriteReg(R5, 0x00000000)  returns 0x00 (0000ms, 1117ms total)
T8120 003:699 JLINK_WriteReg(R6, 0x00000000)  returns 0x00 (0000ms, 1117ms total)
T8120 003:699 JLINK_WriteReg(R7, 0x00000000)  returns 0x00 (0000ms, 1117ms total)
T8120 003:699 JLINK_WriteReg(R8, 0x00000000)  returns 0x00 (0000ms, 1117ms total)
T8120 003:699 JLINK_WriteReg(R9, 0x20000194)  returns 0x00 (0000ms, 1117ms total)
T8120 003:699 JLINK_WriteReg(R10, 0x00000000)  returns 0x00 (0000ms, 1117ms total)
T8120 003:699 JLINK_WriteReg(R11, 0x00000000)  returns 0x00 (0001ms, 1118ms total)
T8120 003:700 JLINK_WriteReg(R12, 0x00000000)  returns 0x00 (0000ms, 1118ms total)
T8120 003:700 JLINK_WriteReg(R13 (SP), 0x20001000)  returns 0x00 (0000ms, 1118ms total)
T8120 003:700 JLINK_WriteReg(R14, 0x20000001)  returns 0x00 (0000ms, 1118ms total)
T8120 003:700 JLINK_WriteReg(R15 (PC), 0x20000120)  returns 0x00 (0000ms, 1118ms total)
T8120 003:700 JLINK_WriteReg(XPSR, 0x01000000)  returns 0x00 (0000ms, 1118ms total)
T8120 003:700 JLINK_WriteReg(MSP, 0x20001000)  returns 0x00 (0000ms, 1118ms total)
T8120 003:700 JLINK_WriteReg(PSP, 0x20001000)  returns 0x00 (0000ms, 1118ms total)
T8120 003:700 JLINK_WriteReg(CFBP, 0x00000000)  returns 0x00 (0001ms, 1119ms total)
T8120 003:701 JLINK_SetBPEx(Addr = 0x20000000, Type = 0xFFFFFFF2)  returns 0x00000008 (0000ms, 1119ms total)
T8120 003:701 JLINK_Go() (0003ms, 1122ms total)
T8120 003:704 JLINK_IsHalted()  returns FALSE (0001ms, 1123ms total)
T8120 003:932 JLINK_IsHalted() -- CPU_ReadMem(2 bytes @ 0x20000000)  returns TRUE (0005ms, 1127ms total)
T8120 003:937 JLINK_ReadReg(R15 (PC))  returns 0x20000000 (0001ms, 1123ms total)
T8120 003:938 JLINK_ClrBPEx(BPHandle = 0x00000008)  returns 0x00 (0000ms, 1123ms total)
T8120 003:938 JLINK_ReadReg(R0)  returns 0x00000000 (0000ms, 1123ms total)
T8120 003:940 JLINK_WriteMem(0x20000198, 0x0400 Bytes, ...) - Data: 01 24 01 E0 AF F3 00 80 00 21 0A 22 06 F1 24 07 ... -- CPU_WriteMem(1024 bytes @ 0x20000198)  returns 0x400 (0007ms, 1130ms total)
T8120 003:947 JLINK_WriteReg(R0, 0x08000400)  returns 0x00 (0000ms, 1130ms total)
T8120 003:947 JLINK_WriteReg(R1, 0x00000400)  returns 0x00 (0000ms, 1130ms total)
T8120 003:947 JLINK_WriteReg(R2, 0x20000198)  returns 0x00 (0000ms, 1130ms total)
T8120 003:947 JLINK_WriteReg(R3, 0x00000000)  returns 0x00 (0000ms, 1130ms total)
T8120 003:947 JLINK_WriteReg(R4, 0x00000000)  returns 0x00 (0000ms, 1130ms total)
T8120 003:947 JLINK_WriteReg(R5, 0x00000000)  returns 0x00 (0000ms, 1130ms total)
T8120 003:947 JLINK_WriteReg(R6, 0x00000000)  returns 0x00 (0000ms, 1130ms total)
T8120 003:947 JLINK_WriteReg(R7, 0x00000000)  returns 0x00 (0001ms, 1131ms total)
T8120 003:948 JLINK_WriteReg(R8, 0x00000000)  returns 0x00 (0000ms, 1131ms total)
T8120 003:948 JLINK_WriteReg(R9, 0x20000194)  returns 0x00 (0000ms, 1131ms total)
T8120 003:948 JLINK_WriteReg(R10, 0x00000000)  returns 0x00 (0000ms, 1131ms total)
T8120 003:948 JLINK_WriteReg(R11, 0x00000000)  returns 0x00 (0000ms, 1131ms total)
T8120 003:948 JLINK_WriteReg(R12, 0x00000000)  returns 0x00 (0000ms, 1131ms total)
T8120 003:948 JLINK_WriteReg(R13 (SP), 0x20001000)  returns 0x00 (0000ms, 1131ms total)
T8120 003:948 JLINK_WriteReg(R14, 0x20000001)  returns 0x00 (0000ms, 1131ms total)
T8120 003:948 JLINK_WriteReg(R15 (PC), 0x20000120)  returns 0x00 (0000ms, 1131ms total)
T8120 003:948 JLINK_WriteReg(XPSR, 0x01000000)  returns 0x00 (0000ms, 1131ms total)
T8120 003:948 JLINK_WriteReg(MSP, 0x20001000)  returns 0x00 (0001ms, 1132ms total)
T8120 003:949 JLINK_WriteReg(PSP, 0x20001000)  returns 0x00 (0000ms, 1132ms total)
T8120 003:949 JLINK_WriteReg(CFBP, 0x00000000)  returns 0x00 (0000ms, 1132ms total)
T8120 003:949 JLINK_SetBPEx(Addr = 0x20000000, Type = 0xFFFFFFF2)  returns 0x00000009 (0000ms, 1132ms total)
T8120 003:949 JLINK_Go() (0003ms, 1135ms total)
T8120 003:952 JLINK_IsHalted()  returns FALSE (0002ms, 1137ms total)
T8120 004:213 JLINK_IsHalted() -- CPU_ReadMem(2 bytes @ 0x20000000)  returns TRUE (0005ms, 1140ms total)
T8120 004:218 JLINK_ReadReg(R15 (PC))  returns 0x20000000 (0001ms, 1136ms total)
T8120 004:219 JLINK_ClrBPEx(BPHandle = 0x00000009)  returns 0x00 (0000ms, 1136ms total)
T8120 004:219 JLINK_ReadReg(R0)  returns 0x00000000 (0000ms, 1136ms total)
T8120 004:220 JLINK_WriteMem(0x20000198, 0x0400 Bytes, ...) - Data: 00 50 4A 46 1F 38 03 A9 03 90 68 46 00 F0 E8 FD ... -- CPU_WriteMem(1024 bytes @ 0x20000198)  returns 0x400 (0008ms, 1144ms total)
T8120 004:228 JLINK_WriteReg(R0, 0x08000800)  returns 0x00 (0000ms, 1144ms total)
T8120 004:228 JLINK_WriteReg(R1, 0x00000400)  returns 0x00 (0000ms, 1144ms total)
T8120 004:228 JLINK_WriteReg(R2, 0x20000198)  returns 0x00 (0000ms, 1144ms total)
T8120 004:228 JLINK_WriteReg(R3, 0x00000000)  returns 0x00 (0001ms, 1145ms total)
T8120 004:229 JLINK_WriteReg(R4, 0x00000000)  returns 0x00 (0000ms, 1145ms total)
T8120 004:229 JLINK_WriteReg(R5, 0x00000000)  returns 0x00 (0000ms, 1145ms total)
T8120 004:229 JLINK_WriteReg(R6, 0x00000000)  returns 0x00 (0000ms, 1145ms total)
T8120 004:229 JLINK_WriteReg(R7, 0x00000000)  returns 0x00 (0000ms, 1145ms total)
T8120 004:229 JLINK_WriteReg(R8, 0x00000000)  returns 0x00 (0001ms, 1146ms total)
T8120 004:230 JLINK_WriteReg(R9, 0x20000194)  returns 0x00 (0000ms, 1146ms total)
T8120 004:230 JLINK_WriteReg(R10, 0x00000000)  returns 0x00 (0000ms, 1146ms total)
T8120 004:230 JLINK_WriteReg(R11, 0x00000000)  returns 0x00 (0000ms, 1146ms total)
T8120 004:230 JLINK_WriteReg(R12, 0x00000000)  returns 0x00 (0000ms, 1146ms total)
T8120 004:231 JLINK_WriteReg(R13 (SP), 0x20001000)  returns 0x00 (0000ms, 1146ms total)
T8120 004:231 JLINK_WriteReg(R14, 0x20000001)  returns 0x00 (0000ms, 1146ms total)
T8120 004:231 JLINK_WriteReg(R15 (PC), 0x20000120)  returns 0x00 (0000ms, 1146ms total)
T8120 004:231 JLINK_WriteReg(XPSR, 0x01000000)  returns 0x00 (0000ms, 1146ms total)
T8120 004:231 JLINK_WriteReg(MSP, 0x20001000)  returns 0x00 (0000ms, 1146ms total)
T8120 004:232 JLINK_WriteReg(PSP, 0x20001000)  returns 0x00 (0000ms, 1147ms total)
T8120 004:232 JLINK_WriteReg(CFBP, 0x00000000)  returns 0x00 (0000ms, 1147ms total)
T8120 004:232 JLINK_SetBPEx(Addr = 0x20000000, Type = 0xFFFFFFF2)  returns 0x0000000A (0000ms, 1147ms total)
T8120 004:232 JLINK_Go() (0004ms, 1151ms total)
T8120 004:236 JLINK_IsHalted()  returns FALSE (0001ms, 1152ms total)
T8120 004:493 JLINK_IsHalted() -- CPU_ReadMem(2 bytes @ 0x20000000)  returns TRUE (0005ms, 1156ms total)
T8120 004:498 JLINK_ReadReg(R15 (PC))  returns 0x20000000 (0001ms, 1152ms total)
T8120 004:499 JLINK_ClrBPEx(BPHandle = 0x0000000A)  returns 0x00 (0000ms, 1152ms total)
T8120 004:499 JLINK_ReadReg(R0)  returns 0x00000000 (0000ms, 1152ms total)
T8120 004:501 JLINK_WriteMem(0x20000198, 0x0400 Bytes, ...) - Data: 4F EA D0 00 40 EA 41 70 4F EA D1 01 10 EB 80 05 ... -- CPU_WriteMem(1024 bytes @ 0x20000198)  returns 0x400 (0007ms, 1159ms total)
T8120 004:508 JLINK_WriteReg(R0, 0x08000C00)  returns 0x00 (0001ms, 1160ms total)
T8120 004:509 JLINK_WriteReg(R1, 0x00000400)  returns 0x00 (0000ms, 1160ms total)
T8120 004:509 JLINK_WriteReg(R2, 0x20000198)  returns 0x00 (0000ms, 1160ms total)
T8120 004:509 JLINK_WriteReg(R3, 0x00000000)  returns 0x00 (0000ms, 1160ms total)
T8120 004:509 JLINK_WriteReg(R4, 0x00000000)  returns 0x00 (0000ms, 1160ms total)
T8120 004:509 JLINK_WriteReg(R5, 0x00000000)  returns 0x00 (0001ms, 1161ms total)
T8120 004:510 JLINK_WriteReg(R6, 0x00000000)  returns 0x00 (0000ms, 1161ms total)
T8120 004:510 JLINK_WriteReg(R7, 0x00000000)  returns 0x00 (0000ms, 1161ms total)
T8120 004:510 JLINK_WriteReg(R8, 0x00000000)  returns 0x00 (0000ms, 1161ms total)
T8120 004:510 JLINK_WriteReg(R9, 0x20000194)  returns 0x00 (0000ms, 1161ms total)
T8120 004:510 JLINK_WriteReg(R10, 0x00000000)  returns 0x00 (0001ms, 1162ms total)
T8120 004:511 JLINK_WriteReg(R11, 0x00000000)  returns 0x00 (0000ms, 1162ms total)
T8120 004:511 JLINK_WriteReg(R12, 0x00000000)  returns 0x00 (0000ms, 1162ms total)
T8120 004:511 JLINK_WriteReg(R13 (SP), 0x20001000)  returns 0x00 (0000ms, 1162ms total)
T8120 004:511 JLINK_WriteReg(R14, 0x20000001)  returns 0x00 (0000ms, 1162ms total)
T8120 004:511 JLINK_WriteReg(R15 (PC), 0x20000120)  returns 0x00 (0001ms, 1163ms total)
T8120 004:512 JLINK_WriteReg(XPSR, 0x01000000)  returns 0x00 (0000ms, 1163ms total)
T8120 004:512 JLINK_WriteReg(MSP, 0x20001000)  returns 0x00 (0000ms, 1163ms total)
T8120 004:512 JLINK_WriteReg(PSP, 0x20001000)  returns 0x00 (0000ms, 1163ms total)
T8120 004:512 JLINK_WriteReg(CFBP, 0x00000000)  returns 0x00 (0000ms, 1163ms total)
T8120 004:512 JLINK_SetBPEx(Addr = 0x20000000, Type = 0xFFFFFFF2)  returns 0x0000000B (0001ms, 1164ms total)
T8120 004:513 JLINK_Go() (0002ms, 1166ms total)
T8120 004:516 JLINK_IsHalted()  returns FALSE (0001ms, 1168ms total)
T8120 004:791 JLINK_IsHalted() -- CPU_ReadMem(2 bytes @ 0x20000000)  returns TRUE (0006ms, 1173ms total)
T8120 004:797 JLINK_ReadReg(R15 (PC))  returns 0x20000000 (0000ms, 1167ms total)
T8120 004:797 JLINK_ClrBPEx(BPHandle = 0x0000000B)  returns 0x00 (0001ms, 1168ms total)
T8120 004:798 JLINK_ReadReg(R0)  returns 0x00000000 (0000ms, 1168ms total)
T8120 004:800 JLINK_WriteMem(0x20000198, 0x0400 Bytes, ...) - Data: C7 F5 00 07 07 FB 06 F6 4F EA 54 37 4F EA D6 46 ... -- CPU_WriteMem(1024 bytes @ 0x20000198)  returns 0x400 (0007ms, 1175ms total)
T8120 004:807 JLINK_WriteReg(R0, 0x08001000)  returns 0x00 (0000ms, 1175ms total)
T8120 004:807 JLINK_WriteReg(R1, 0x00000400)  returns 0x00 (0001ms, 1176ms total)
T8120 004:808 JLINK_WriteReg(R2, 0x20000198)  returns 0x00 (0000ms, 1176ms total)
T8120 004:808 JLINK_WriteReg(R3, 0x00000000)  returns 0x00 (0000ms, 1176ms total)
T8120 004:808 JLINK_WriteReg(R4, 0x00000000)  returns 0x00 (0000ms, 1176ms total)
T8120 004:808 JLINK_WriteReg(R5, 0x00000000)  returns 0x00 (0000ms, 1176ms total)
T8120 004:808 JLINK_WriteReg(R6, 0x00000000)  returns 0x00 (0000ms, 1176ms total)
T8120 004:808 JLINK_WriteReg(R7, 0x00000000)  returns 0x00 (0000ms, 1176ms total)
T8120 004:808 JLINK_WriteReg(R8, 0x00000000)  returns 0x00 (0000ms, 1176ms total)
T8120 004:809 JLINK_WriteReg(R9, 0x20000194)  returns 0x00 (0000ms, 1177ms total)
T8120 004:809 JLINK_WriteReg(R10, 0x00000000)  returns 0x00 (0000ms, 1177ms total)
T8120 004:809 JLINK_WriteReg(R11, 0x00000000)  returns 0x00 (0000ms, 1177ms total)
T8120 004:809 JLINK_WriteReg(R12, 0x00000000)  returns 0x00 (0000ms, 1177ms total)
T8120 004:809 JLINK_WriteReg(R13 (SP), 0x20001000)  returns 0x00 (0000ms, 1177ms total)
T8120 004:809 JLINK_WriteReg(R14, 0x20000001)  returns 0x00 (0001ms, 1178ms total)
T8120 004:810 JLINK_WriteReg(R15 (PC), 0x20000120)  returns 0x00 (0000ms, 1178ms total)
T8120 004:810 JLINK_WriteReg(XPSR, 0x01000000)  returns 0x00 (0000ms, 1178ms total)
T8120 004:810 JLINK_WriteReg(MSP, 0x20001000)  returns 0x00 (0000ms, 1178ms total)
T8120 004:810 JLINK_WriteReg(PSP, 0x20001000)  returns 0x00 (0000ms, 1178ms total)
T8120 004:810 JLINK_WriteReg(CFBP, 0x00000000)  returns 0x00 (0001ms, 1179ms total)
T8120 004:811 JLINK_SetBPEx(Addr = 0x20000000, Type = 0xFFFFFFF2)  returns 0x0000000C (0000ms, 1179ms total)
T8120 004:811 JLINK_Go() (0003ms, 1182ms total)
T8120 004:814 JLINK_IsHalted()  returns FALSE (0001ms, 1183ms total)
T8120 005:052 JLINK_IsHalted() -- CPU_ReadMem(2 bytes @ 0x20000000)  returns TRUE (0005ms, 1187ms total)
T8120 005:057 JLINK_ReadReg(R15 (PC))  returns 0x20000000 (0000ms, 1182ms total)
T8120 005:058 JLINK_ClrBPEx(BPHandle = 0x0000000C)  returns 0x00 (0000ms, 1182ms total)
T8120 005:058 JLINK_ReadReg(R0)  returns 0x00000000 (0000ms, 1182ms total)
T8120 005:059 JLINK_WriteMem(0x20000198, 0x0400 Bytes, ...) - Data: 78 FF F0 BC BD E8 00 88 20 F0 7F 47 80 EA 03 00 ... -- CPU_WriteMem(1024 bytes @ 0x20000198)  returns 0x400 (0007ms, 1189ms total)
T8120 005:066 JLINK_WriteReg(R0, 0x08001400)  returns 0x00 (0000ms, 1189ms total)
T8120 005:066 JLINK_WriteReg(R1, 0x00000400)  returns 0x00 (0000ms, 1189ms total)
T8120 005:066 JLINK_WriteReg(R2, 0x20000198)  returns 0x00 (0000ms, 1189ms total)
T8120 005:066 JLINK_WriteReg(R3, 0x00000000)  returns 0x00 (0000ms, 1189ms total)
T8120 005:066 JLINK_WriteReg(R4, 0x00000000)  returns 0x00 (0000ms, 1189ms total)
T8120 005:066 JLINK_WriteReg(R5, 0x00000000)  returns 0x00 (0001ms, 1190ms total)
T8120 005:067 JLINK_WriteReg(R6, 0x00000000)  returns 0x00 (0000ms, 1190ms total)
T8120 005:067 JLINK_WriteReg(R7, 0x00000000)  returns 0x00 (0000ms, 1190ms total)
T8120 005:067 JLINK_WriteReg(R8, 0x00000000)  returns 0x00 (0000ms, 1190ms total)
T8120 005:067 JLINK_WriteReg(R9, 0x20000194)  returns 0x00 (0000ms, 1190ms total)
T8120 005:067 JLINK_WriteReg(R10, 0x00000000)  returns 0x00 (0000ms, 1190ms total)
T8120 005:067 JLINK_WriteReg(R11, 0x00000000)  returns 0x00 (0000ms, 1190ms total)
T8120 005:067 JLINK_WriteReg(R12, 0x00000000)  returns 0x00 (0000ms, 1190ms total)
T8120 005:067 JLINK_WriteReg(R13 (SP), 0x20001000)  returns 0x00 (0001ms, 1191ms total)
T8120 005:068 JLINK_WriteReg(R14, 0x20000001)  returns 0x00 (0000ms, 1191ms total)
T8120 005:068 JLINK_WriteReg(R15 (PC), 0x20000120)  returns 0x00 (0000ms, 1191ms total)
T8120 005:068 JLINK_WriteReg(XPSR, 0x01000000)  returns 0x00 (0000ms, 1191ms total)
T8120 005:068 JLINK_WriteReg(MSP, 0x20001000)  returns 0x00 (0000ms, 1191ms total)
T8120 005:068 JLINK_WriteReg(PSP, 0x20001000)  returns 0x00 (0000ms, 1191ms total)
T8120 005:068 JLINK_WriteReg(CFBP, 0x00000000)  returns 0x00 (0000ms, 1191ms total)
T8120 005:068 JLINK_SetBPEx(Addr = 0x20000000, Type = 0xFFFFFFF2)  returns 0x0000000D (0000ms, 1191ms total)
T8120 005:068 JLINK_Go() (0004ms, 1195ms total)
T8120 005:072 JLINK_IsHalted()  returns FALSE (0002ms, 1197ms total)
T8120 005:304 JLINK_IsHalted() -- CPU_ReadMem(2 bytes @ 0x20000000)  returns TRUE (0006ms, 1201ms total)
T8120 005:310 JLINK_ReadReg(R15 (PC))  returns 0x20000000 (0000ms, 1195ms total)
T8120 005:310 JLINK_ClrBPEx(BPHandle = 0x0000000D)  returns 0x00 (0000ms, 1195ms total)
T8120 005:310 JLINK_ReadReg(R0)  returns 0x00000000 (0000ms, 1195ms total)
T8120 005:312 JLINK_WriteMem(0x20000198, 0x0400 Bytes, ...) - Data: 4A 61 01 68 4A 69 22 F4 00 72 4A 61 01 68 4A 69 ... -- CPU_WriteMem(1024 bytes @ 0x20000198)  returns 0x400 (0007ms, 1202ms total)
T8120 005:319 JLINK_WriteReg(R0, 0x08001800)  returns 0x00 (0000ms, 1202ms total)
T8120 005:319 JLINK_WriteReg(R1, 0x00000400)  returns 0x00 (0000ms, 1202ms total)
T8120 005:319 JLINK_WriteReg(R2, 0x20000198)  returns 0x00 (0000ms, 1202ms total)
T8120 005:319 JLINK_WriteReg(R3, 0x00000000)  returns 0x00 (0000ms, 1202ms total)
T8120 005:319 JLINK_WriteReg(R4, 0x00000000)  returns 0x00 (0000ms, 1202ms total)
T8120 005:319 JLINK_WriteReg(R5, 0x00000000)  returns 0x00 (0000ms, 1202ms total)
T8120 005:319 JLINK_WriteReg(R6, 0x00000000)  returns 0x00 (0001ms, 1203ms total)
T8120 005:320 JLINK_WriteReg(R7, 0x00000000)  returns 0x00 (0000ms, 1203ms total)
T8120 005:320 JLINK_WriteReg(R8, 0x00000000)  returns 0x00 (0000ms, 1203ms total)
T8120 005:320 JLINK_WriteReg(R9, 0x20000194)  returns 0x00 (0000ms, 1203ms total)
T8120 005:320 JLINK_WriteReg(R10, 0x00000000)  returns 0x00 (0000ms, 1203ms total)
T8120 005:320 JLINK_WriteReg(R11, 0x00000000)  returns 0x00 (0000ms, 1203ms total)
T8120 005:320 JLINK_WriteReg(R12, 0x00000000)  returns 0x00 (0000ms, 1203ms total)
T8120 005:320 JLINK_WriteReg(R13 (SP), 0x20001000)  returns 0x00 (0001ms, 1204ms total)
T8120 005:321 JLINK_WriteReg(R14, 0x20000001)  returns 0x00 (0000ms, 1204ms total)
T8120 005:321 JLINK_WriteReg(R15 (PC), 0x20000120)  returns 0x00 (0000ms, 1204ms total)
T8120 005:321 JLINK_WriteReg(XPSR, 0x01000000)  returns 0x00 (0000ms, 1204ms total)
T8120 005:321 JLINK_WriteReg(MSP, 0x20001000)  returns 0x00 (0000ms, 1204ms total)
T8120 005:321 JLINK_WriteReg(PSP, 0x20001000)  returns 0x00 (0000ms, 1204ms total)
T8120 005:321 JLINK_WriteReg(CFBP, 0x00000000)  returns 0x00 (0000ms, 1204ms total)
T8120 005:321 JLINK_SetBPEx(Addr = 0x20000000, Type = 0xFFFFFFF2)  returns 0x0000000E (0000ms, 1204ms total)
T8120 005:321 JLINK_Go() (0004ms, 1208ms total)
T8120 005:325 JLINK_IsHalted()  returns FALSE (0002ms, 1210ms total)
T8120 005:575 JLINK_IsHalted() -- CPU_ReadMem(2 bytes @ 0x20000000)  returns TRUE (0005ms, 1213ms total)
T8120 005:580 JLINK_ReadReg(R15 (PC))  returns 0x20000000 (0000ms, 1208ms total)
T8120 005:580 JLINK_ClrBPEx(BPHandle = 0x0000000E)  returns 0x00 (0000ms, 1208ms total)
T8120 005:581 JLINK_ReadReg(R0)  returns 0x00000000 (0000ms, 1209ms total)
T8120 005:583 JLINK_WriteMem(0x20000198, 0x0400 Bytes, ...) - Data: 42 69 43 69 C2 F3 C0 22 C3 F3 C0 33 41 B1 27 E0 ... -- CPU_WriteMem(1024 bytes @ 0x20000198)  returns 0x400 (0007ms, 1216ms total)
T8120 005:590 JLINK_WriteReg(R0, 0x08001C00)  returns 0x00 (0000ms, 1216ms total)
T8120 005:591 JLINK_WriteReg(R1, 0x00000400)  returns 0x00 (0000ms, 1217ms total)
T8120 005:591 JLINK_WriteReg(R2, 0x20000198)  returns 0x00 (0000ms, 1217ms total)
T8120 005:591 JLINK_WriteReg(R3, 0x00000000)  returns 0x00 (0000ms, 1217ms total)
T8120 005:591 JLINK_WriteReg(R4, 0x00000000)  returns 0x00 (0000ms, 1217ms total)
T8120 005:591 JLINK_WriteReg(R5, 0x00000000)  returns 0x00 (0000ms, 1217ms total)
T8120 005:592 JLINK_WriteReg(R6, 0x00000000)  returns 0x00 (0000ms, 1217ms total)
T8120 005:592 JLINK_WriteReg(R7, 0x00000000)  returns 0x00 (0000ms, 1217ms total)
T8120 005:592 JLINK_WriteReg(R8, 0x00000000)  returns 0x00 (0000ms, 1217ms total)
T8120 005:592 JLINK_WriteReg(R9, 0x20000194)  returns 0x00 (0000ms, 1217ms total)
T8120 005:592 JLINK_WriteReg(R10, 0x00000000)  returns 0x00 (0000ms, 1217ms total)
T8120 005:592 JLINK_WriteReg(R11, 0x00000000)  returns 0x00 (0001ms, 1218ms total)
T8120 005:593 JLINK_WriteReg(R12, 0x00000000)  returns 0x00 (0000ms, 1218ms total)
T8120 005:593 JLINK_WriteReg(R13 (SP), 0x20001000)  returns 0x00 (0000ms, 1218ms total)
T8120 005:593 JLINK_WriteReg(R14, 0x20000001)  returns 0x00 (0000ms, 1218ms total)
T8120 005:593 JLINK_WriteReg(R15 (PC), 0x20000120)  returns 0x00 (0000ms, 1218ms total)
T8120 005:593 JLINK_WriteReg(XPSR, 0x01000000)  returns 0x00 (0000ms, 1218ms total)
T8120 005:593 JLINK_WriteReg(MSP, 0x20001000)  returns 0x00 (0001ms, 1219ms total)
T8120 005:594 JLINK_WriteReg(PSP, 0x20001000)  returns 0x00 (0000ms, 1219ms total)
T8120 005:594 JLINK_WriteReg(CFBP, 0x00000000)  returns 0x00 (0000ms, 1219ms total)
T8120 005:594 JLINK_SetBPEx(Addr = 0x20000000, Type = 0xFFFFFFF2)  returns 0x0000000F (0000ms, 1219ms total)
T8120 005:594 JLINK_Go() (0004ms, 1223ms total)
T8120 005:598 JLINK_IsHalted()  returns FALSE (0001ms, 1224ms total)
T8120 005:822 JLINK_IsHalted() -- CPU_ReadMem(2 bytes @ 0x20000000)  returns TRUE (0006ms, 1229ms total)
T8120 005:828 JLINK_ReadReg(R15 (PC))  returns 0x20000000 (0000ms, 1223ms total)
T8120 005:828 JLINK_ClrBPEx(BPHandle = 0x0000000F)  returns 0x00 (0001ms, 1224ms total)
T8120 005:829 JLINK_ReadReg(R0)  returns 0x00000000 (0000ms, 1224ms total)
T8120 005:831 JLINK_WriteMem(0x20000198, 0x0400 Bytes, ...) - Data: 02 F0 F2 FF 01 E0 02 F0 BF FF 0B 20 D6 E7 50 69 ... -- CPU_WriteMem(1024 bytes @ 0x20000198)  returns 0x400 (0007ms, 1231ms total)
T8120 005:838 JLINK_WriteReg(R0, 0x08002000)  returns 0x00 (0000ms, 1231ms total)
T8120 005:838 JLINK_WriteReg(R1, 0x00000400)  returns 0x00 (0000ms, 1231ms total)
T8120 005:838 JLINK_WriteReg(R2, 0x20000198)  returns 0x00 (0000ms, 1231ms total)
T8120 005:838 JLINK_WriteReg(R3, 0x00000000)  returns 0x00 (0000ms, 1231ms total)
T8120 005:838 JLINK_WriteReg(R4, 0x00000000)  returns 0x00 (0000ms, 1231ms total)
T8120 005:838 JLINK_WriteReg(R5, 0x00000000)  returns 0x00 (0000ms, 1231ms total)
T8120 005:838 JLINK_WriteReg(R6, 0x00000000)  returns 0x00 (0000ms, 1231ms total)
T8120 005:838 JLINK_WriteReg(R7, 0x00000000)  returns 0x00 (0000ms, 1231ms total)
T8120 005:839 JLINK_WriteReg(R8, 0x00000000)  returns 0x00 (0000ms, 1232ms total)
T8120 005:839 JLINK_WriteReg(R9, 0x20000194)  returns 0x00 (0000ms, 1232ms total)
T8120 005:839 JLINK_WriteReg(R10, 0x00000000)  returns 0x00 (0000ms, 1232ms total)
T8120 005:839 JLINK_WriteReg(R11, 0x00000000)  returns 0x00 (0000ms, 1232ms total)
T8120 005:839 JLINK_WriteReg(R12, 0x00000000)  returns 0x00 (0000ms, 1232ms total)
T8120 005:839 JLINK_WriteReg(R13 (SP), 0x20001000)  returns 0x00 (0000ms, 1232ms total)
T8120 005:839 JLINK_WriteReg(R14, 0x20000001)  returns 0x00 (0001ms, 1233ms total)
T8120 005:840 JLINK_WriteReg(R15 (PC), 0x20000120)  returns 0x00 (0000ms, 1233ms total)
T8120 005:840 JLINK_WriteReg(XPSR, 0x01000000)  returns 0x00 (0000ms, 1233ms total)
T8120 005:840 JLINK_WriteReg(MSP, 0x20001000)  returns 0x00 (0000ms, 1233ms total)
T8120 005:840 JLINK_WriteReg(PSP, 0x20001000)  returns 0x00 (0000ms, 1233ms total)
T8120 005:840 JLINK_WriteReg(CFBP, 0x00000000)  returns 0x00 (0001ms, 1234ms total)
T8120 005:841 JLINK_SetBPEx(Addr = 0x20000000, Type = 0xFFFFFFF2)  returns 0x00000010 (0000ms, 1234ms total)
T8120 005:841 JLINK_Go() (0003ms, 1237ms total)
T8120 005:844 JLINK_IsHalted()  returns FALSE (0001ms, 1238ms total)
T8120 006:069 JLINK_IsHalted() -- CPU_ReadMem(2 bytes @ 0x20000000)  returns TRUE (0006ms, 1243ms total)
T8120 006:075 JLINK_ReadReg(R15 (PC))  returns 0x20000000 (0000ms, 1237ms total)
T8120 006:075 JLINK_ClrBPEx(BPHandle = 0x00000010)  returns 0x00 (0000ms, 1237ms total)
T8120 006:075 JLINK_ReadReg(R0)  returns 0x00000000 (0000ms, 1237ms total)
T8120 006:079 JLINK_WriteMem(0x20000198, 0x0400 Bytes, ...) - Data: 01 40 D4 E9 01 03 18 43 D4 E9 03 36 33 43 18 43 ... -- CPU_WriteMem(1024 bytes @ 0x20000198)  returns 0x400 (0007ms, 1244ms total)
T8120 006:086 JLINK_WriteReg(R0, 0x08002400)  returns 0x00 (0000ms, 1244ms total)
T8120 006:086 JLINK_WriteReg(R1, 0x00000400)  returns 0x00 (0000ms, 1244ms total)
T8120 006:086 JLINK_WriteReg(R2, 0x20000198)  returns 0x00 (0001ms, 1245ms total)
T8120 006:087 JLINK_WriteReg(R3, 0x00000000)  returns 0x00 (0000ms, 1245ms total)
T8120 006:087 JLINK_WriteReg(R4, 0x00000000)  returns 0x00 (0000ms, 1245ms total)
T8120 006:087 JLINK_WriteReg(R5, 0x00000000)  returns 0x00 (0000ms, 1245ms total)
T8120 006:087 JLINK_WriteReg(R6, 0x00000000)  returns 0x00 (0000ms, 1245ms total)
T8120 006:087 JLINK_WriteReg(R7, 0x00000000)  returns 0x00 (0001ms, 1246ms total)
T8120 006:088 JLINK_WriteReg(R8, 0x00000000)  returns 0x00 (0000ms, 1246ms total)
T8120 006:088 JLINK_WriteReg(R9, 0x20000194)  returns 0x00 (0000ms, 1246ms total)
T8120 006:088 JLINK_WriteReg(R10, 0x00000000)  returns 0x00 (0000ms, 1246ms total)
T8120 006:088 JLINK_WriteReg(R11, 0x00000000)  returns 0x00 (0000ms, 1246ms total)
T8120 006:088 JLINK_WriteReg(R12, 0x00000000)  returns 0x00 (0000ms, 1246ms total)
T8120 006:089 JLINK_WriteReg(R13 (SP), 0x20001000)  returns 0x00 (0000ms, 1246ms total)
T8120 006:089 JLINK_WriteReg(R14, 0x20000001)  returns 0x00 (0000ms, 1246ms total)
T8120 006:089 JLINK_WriteReg(R15 (PC), 0x20000120)  returns 0x00 (0000ms, 1246ms total)
T8120 006:089 JLINK_WriteReg(XPSR, 0x01000000)  returns 0x00 (0000ms, 1246ms total)
T8120 006:089 JLINK_WriteReg(MSP, 0x20001000)  returns 0x00 (0000ms, 1246ms total)
T8120 006:089 JLINK_WriteReg(PSP, 0x20001000)  returns 0x00 (0001ms, 1247ms total)
T8120 006:090 JLINK_WriteReg(CFBP, 0x00000000)  returns 0x00 (0000ms, 1247ms total)
T8120 006:090 JLINK_SetBPEx(Addr = 0x20000000, Type = 0xFFFFFFF2)  returns 0x00000011 (0000ms, 1247ms total)
T8120 006:090 JLINK_Go() (0003ms, 1250ms total)
T8120 006:093 JLINK_IsHalted()  returns FALSE (0001ms, 1251ms total)
